time	V(n003)	V(n005)	I(I1)
0.000000000000000e+000	1.362921e+000	2.500085e+000	1.250000e-004
9.636378853130151e-006	1.362927e+000	2.500090e+000	1.250378e-004
1.927275770626030e-005	1.362939e+000	2.500103e+000	1.250757e-004
2.890913655939045e-005	1.362958e+000	2.500125e+000	1.251135e-004
3.854551541252060e-005	1.362982e+000	2.500156e+000	1.251514e-004
4.818189426565075e-005	1.363014e+000	2.500196e+000	1.251892e-004
5.781827311878091e-005	1.363051e+000	2.500245e+000	1.252270e-004
6.745465197191104e-005	1.363095e+000	2.500302e+000	1.252649e-004
1.192112003905114e-004	1.363378e+000	2.500747e+000	1.254681e-004
2.123077748401501e-004	1.364035e+000	2.502106e+000	1.258337e-004
3.341209974482204e-004	1.365008e+000	2.504856e+000	1.263121e-004
5.091034091276016e-004	1.366448e+000	2.510443e+000	1.269992e-004
7.044159091276017e-004	1.368048e+000	2.518557e+000	1.277660e-004
9.156077045531890e-004	1.369759e+000	2.529090e+000	1.285951e-004
1.063814461858672e-003	1.370948e+000	2.537356e+000	1.291768e-004
1.233193613064937e-003	1.372295e+000	2.547486e+000	1.298415e-004
1.428506113064937e-003	1.373834e+000	2.559908e+000	1.306078e-004
1.623818613064937e-003	1.375356e+000	2.572961e+000	1.313739e-004
1.819131113064937e-003	1.376863e+000	2.586507e+000	1.321398e-004
2.209756113064937e-003	1.379829e+000	2.614669e+000	1.336707e-004
2.600381113064937e-003	1.382736e+000	2.643779e+000	1.352003e-004
3.186318613064938e-003	1.386987e+000	2.688432e+000	1.374918e-004
3.744354327350653e-003	1.390910e+000	2.731713e+000	1.396718e-004
4.302390041636368e-003	1.394733e+000	2.774973e+000	1.418457e-004
4.860425755922083e-003	1.398457e+000	2.818212e+000	1.440134e-004
5.418461470207798e-003	1.402082e+000	2.861429e+000	1.461750e-004
5.976497184493513e-003	1.405608e+000	2.904625e+000	1.483303e-004
6.534532898779228e-003	1.409034e+000	2.947800e+000	1.504795e-004
7.092568613064941e-003	1.412362e+000	2.990953e+000	1.526226e-004
9.711848746993506e-003	1.426524e+000	3.193874e+000	1.627058e-004
1.233112888092207e-002	1.439460e+000	3.388944e+000	1.723777e-004
1.495040901485063e-002	1.451168e+000	3.576160e+000	1.816383e-004
1.756968914877920e-002	1.461650e+000	3.755524e+000	1.904876e-004
2.018896928270776e-002	1.470906e+000	3.927035e+000	1.989256e-004
2.280824941663633e-002	1.478934e+000	4.090694e+000	2.069522e-004
2.542752955056488e-002	1.485736e+000	4.246500e+000	2.145675e-004
2.793520254163633e-002	1.491643e+000	4.383409e+000	2.212300e-004
3.044287553270778e-002	1.496882e+000	4.506957e+000	2.272148e-004
3.295054852377923e-002	1.501451e+000	4.617144e+000	2.325219e-004
3.545822151485068e-002	1.505352e+000	4.713969e+000	2.371513e-004
3.796589450592213e-002	1.508584e+000	4.797434e+000	2.411031e-004
4.047356749699358e-002	1.511147e+000	4.867537e+000	2.443771e-004
4.298124048806502e-002	1.513041e+000	4.924278e+000	2.469735e-004
4.379039227377932e-002	1.513543e+000	4.938959e+000	2.476297e-004
4.459954405949362e-002	1.513984e+000	4.952046e+000	2.482060e-004
4.540869584520792e-002	1.514363e+000	4.963538e+000	2.487022e-004
4.621784763092221e-002	1.514681e+000	4.973437e+000	2.491183e-004
4.702699941663651e-002	1.514938e+000	4.981742e+000	2.494545e-004
4.783615120235081e-002	1.515134e+000	4.988453e+000	2.497107e-004
4.864530298806510e-002	1.515268e+000	4.993570e+000	2.498868e-004
4.884061548806511e-002	1.515291e+000	4.994560e+000	2.499171e-004
4.924086620920042e-002	1.515328e+000	4.996161e+000	2.499644e-004
4.932707836740354e-002	1.515334e+000	4.996503e+000	2.499721e-004
4.932860424630979e-002	1.515334e+000	4.996509e+000	2.499722e-004
4.932860425795133e-002	1.515334e+000	4.996509e+000	2.499722e-004
4.932860428123439e-002	1.515334e+000	4.996509e+000	2.499722e-004
4.932860432780051e-002	1.515334e+000	4.996509e+000	2.499722e-004
4.932860433944205e-002	1.515334e+000	4.996509e+000	2.499722e-004
4.932860434235243e-002	1.515334e+000	4.996509e+000	2.499722e-004
4.932860434308003e-002	1.515334e+000	4.996509e+000	2.499722e-004
4.932860434453522e-002	1.515334e+000	4.996509e+000	2.499722e-004
4.932860434489902e-002	1.515334e+000	4.996509e+000	2.499722e-004
4.932860434562662e-002	1.515334e+000	4.996509e+000	2.499722e-004
4.932860434580851e-002	1.515334e+000	4.996509e+000	2.499722e-004
4.932860434617231e-002	1.515334e+000	4.996509e+000	2.499722e-004
4.932860434626326e-002	1.515334e+000	4.996509e+000	2.499722e-004
4.932860434644516e-002	1.515334e+000	4.996509e+000	2.499722e-004
4.932860434680896e-002	1.515334e+000	4.996509e+000	2.499722e-004
4.932860434753655e-002	1.515334e+000	4.996509e+000	2.499722e-004
4.932860434899174e-002	1.515334e+000	4.996509e+000	2.499722e-004
4.932860434935554e-002	1.515334e+000	4.996509e+000	2.499722e-004
4.932860435008314e-002	1.515334e+000	4.996509e+000	2.499722e-004
4.932860435153833e-002	1.515334e+000	4.996509e+000	2.499722e-004
4.932860435444871e-002	1.515334e+000	4.996509e+000	2.499722e-004
4.932860436026948e-002	1.515334e+000	4.996509e+000	2.499722e-004
4.932860436045138e-002	1.515334e+000	4.996509e+000	2.499722e-004
4.932860436081517e-002	1.515334e+000	4.996509e+000	2.499722e-004
4.932860436154277e-002	1.515334e+000	4.996509e+000	2.499722e-004
4.932860436172467e-002	1.515334e+000	4.996509e+000	2.499722e-004
4.932860436177015e-002	1.515334e+000	4.996509e+000	2.499722e-004
4.932860436178151e-002	1.515334e+000	4.996509e+000	2.499722e-004
4.932860436180425e-002	1.515334e+000	4.996509e+000	2.499722e-004
4.932860436184973e-002	1.515334e+000	4.996509e+000	2.499722e-004
4.932860436186110e-002	1.515334e+000	4.996509e+000	2.499722e-004
4.932860436188383e-002	1.515334e+000	4.996509e+000	2.499722e-004
4.932860436188952e-002	1.515334e+000	4.996509e+000	2.499722e-004
4.932860436190088e-002	1.515334e+000	4.996509e+000	2.499722e-004
4.932860436192362e-002	1.515334e+000	4.996509e+000	2.499722e-004
4.932860436192930e-002	1.515334e+000	4.996509e+000	2.499722e-004
4.932860436193073e-002	1.515334e+000	4.996509e+000	2.499722e-004
4.932860436193357e-002	1.515334e+000	4.996509e+000	2.499722e-004
4.932860436193428e-002	1.515334e+000	4.996509e+000	2.499722e-004
4.932860436193570e-002	1.515334e+000	4.996509e+000	2.499722e-004
4.932860436193606e-002	1.515334e+000	4.996509e+000	2.499722e-004
4.932860436193676e-002	1.515334e+000	4.996509e+000	2.499722e-004
4.932860436193819e-002	1.515334e+000	4.996509e+000	2.499722e-004
4.932860436194103e-002	1.515334e+000	4.996509e+000	2.499722e-004
4.932860436194174e-002	1.515334e+000	4.996509e+000	2.499722e-004
4.932860436194192e-002	1.515334e+000	4.996509e+000	2.499722e-004
4.932860436194227e-002	1.515334e+000	4.996509e+000	2.499722e-004
4.932860436194298e-002	1.515334e+000	4.996509e+000	2.499722e-004
4.932860436194440e-002	1.515334e+000	4.996509e+000	2.499722e-004
4.932860436194725e-002	1.515334e+000	4.996509e+000	2.499722e-004
4.932860436195293e-002	1.515334e+000	4.996509e+000	2.499722e-004
4.932860436196430e-002	1.515334e+000	4.996509e+000	2.499722e-004
4.932860436198704e-002	1.515334e+000	4.996509e+000	2.499722e-004
4.932860436203251e-002	1.515334e+000	4.996509e+000	2.499722e-004
4.932860436212346e-002	1.515334e+000	4.996509e+000	2.499722e-004
4.932860436214620e-002	1.515334e+000	4.996509e+000	2.499722e-004
4.932860436215188e-002	1.515334e+000	4.996509e+000	2.499722e-004
4.932860436216325e-002	1.515334e+000	4.996509e+000	2.499722e-004
4.932860436218599e-002	1.515334e+000	4.996509e+000	2.499722e-004
4.932860436219167e-002	1.515334e+000	4.996509e+000	2.499722e-004
4.932860436220304e-002	1.515334e+000	4.996509e+000	2.499722e-004
4.932860436220588e-002	1.515334e+000	4.996509e+000	2.499722e-004
4.932860436220659e-002	1.515334e+000	4.996509e+000	2.499722e-004
4.932860436220677e-002	1.515334e+000	4.996509e+000	2.499722e-004
4.932860436220712e-002	1.515334e+000	4.996509e+000	2.499722e-004
4.932860436220724e-002	1.515334e+000	4.996509e+000	2.499722e-004
4.932860436220745e-002	1.515334e+000	4.996509e+000	2.499722e-004
4.932860436220788e-002	1.515334e+000	4.996509e+000	2.499722e-004
4.932860436220875e-002	1.515334e+000	4.996509e+000	2.499722e-004
4.932860436221048e-002	1.515334e+000	4.996509e+000	2.499722e-004
4.932860436221393e-002	1.515334e+000	4.996509e+000	2.499722e-004
4.932860436222084e-002	1.515334e+000	4.996509e+000	2.499722e-004
4.932860436222257e-002	1.515334e+000	4.996509e+000	2.499722e-004
4.932860436222300e-002	1.515334e+000	4.996509e+000	2.499722e-004
4.932860436222387e-002	1.515334e+000	4.996509e+000	2.499722e-004
4.932860436222560e-002	1.515334e+000	4.996509e+000	2.499722e-004
4.932860436222905e-002	1.515334e+000	4.996509e+000	2.499722e-004
4.932860436223596e-002	1.515334e+000	4.996509e+000	2.499722e-004
4.932860436224979e-002	1.515334e+000	4.996509e+000	2.499722e-004
4.932860436227745e-002	1.515334e+000	4.996509e+000	2.499722e-004
4.932860436233277e-002	1.515334e+000	4.996509e+000	2.499722e-004
4.932860436234660e-002	1.515334e+000	4.996509e+000	2.499722e-004
4.932860436235005e-002	1.515334e+000	4.996509e+000	2.499722e-004
4.932860436235696e-002	1.515334e+000	4.996509e+000	2.499722e-004
4.932860436237079e-002	1.515334e+000	4.996509e+000	2.499722e-004
4.932860436239845e-002	1.515334e+000	4.996509e+000	2.499722e-004
4.932860436245377e-002	1.515334e+000	4.996509e+000	2.499722e-004
4.932860436256439e-002	1.515334e+000	4.996509e+000	2.499722e-004
4.932860436278565e-002	1.515334e+000	4.996509e+000	2.499722e-004
4.932860436322816e-002	1.515334e+000	4.996509e+000	2.499722e-004
4.932860436411318e-002	1.515334e+000	4.996509e+000	2.499722e-004
4.932860436433444e-002	1.515334e+000	4.996509e+000	2.499722e-004
4.932860436477695e-002	1.515334e+000	4.996509e+000	2.499722e-004
4.932860436566197e-002	1.515334e+000	4.996509e+000	2.499722e-004
4.932860436743202e-002	1.515334e+000	4.996509e+000	2.499722e-004
4.932860437097211e-002	1.515334e+000	4.996509e+000	2.499722e-004
4.932860437185713e-002	1.515334e+000	4.996509e+000	2.499722e-004
4.932860437362718e-002	1.515334e+000	4.996509e+000	2.499722e-004
4.932860437716728e-002	1.515334e+000	4.996509e+000	2.499722e-004
4.932860438424746e-002	1.515334e+000	4.996509e+000	2.499722e-004
4.932860439840783e-002	1.515334e+000	4.996509e+000	2.499722e-004
4.932860440194792e-002	1.515334e+000	4.996509e+000	2.499722e-004
4.932860440902811e-002	1.515334e+000	4.996509e+000	2.499722e-004
4.932860442318848e-002	1.515334e+000	4.996509e+000	2.499722e-004
4.932860442672857e-002	1.515334e+000	4.996509e+000	2.499722e-004
4.932860443380876e-002	1.515334e+000	4.996509e+000	2.499722e-004
4.932860444796913e-002	1.515334e+000	4.996509e+000	2.499722e-004
4.932860447628987e-002	1.515334e+000	4.996509e+000	2.499722e-004
4.932860453293136e-002	1.515334e+000	4.996509e+000	2.499722e-004
4.932860464621433e-002	1.515334e+000	4.996509e+000	2.499722e-004
4.932860487278028e-002	1.515334e+000	4.996509e+000	2.499722e-004
4.932860532591216e-002	1.515334e+000	4.996509e+000	2.499722e-004
4.932860623217594e-002	1.515334e+000	4.996509e+000	2.499722e-004
4.932860645874189e-002	1.515334e+000	4.996509e+000	2.499722e-004
4.932860691187378e-002	1.515334e+000	4.996509e+000	2.499722e-004
4.932986299347020e-002	1.515334e+000	4.996513e+000	2.499723e-004
4.932987024358043e-002	1.515334e+000	4.996513e+000	2.499723e-004
4.932987092327826e-002	1.515334e+000	4.996513e+000	2.499723e-004
4.932987364206960e-002	1.515334e+000	4.996513e+000	2.499723e-004
4.932988451723494e-002	1.515334e+000	4.996513e+000	2.499723e-004
4.932989901745539e-002	1.515334e+000	4.996513e+000	2.499723e-004
4.932990354877428e-002	1.515334e+000	4.996513e+000	2.499723e-004
4.932990898635695e-002	1.515334e+000	4.996513e+000	2.499723e-004
4.932990989262073e-002	1.515334e+000	4.996513e+000	2.499723e-004
4.932991057231856e-002	1.515334e+000	4.996513e+000	2.499723e-004
4.932991329110990e-002	1.515334e+000	4.996513e+000	2.499723e-004
4.932997905996694e-002	1.515334e+000	4.996513e+000	2.499723e-004
4.933004482882397e-002	1.515334e+000	4.996513e+000	2.499723e-004
4.933011059768101e-002	1.515334e+000	4.996513e+000	2.499723e-004
4.933017636653805e-002	1.515334e+000	4.996513e+000	2.499723e-004
4.933024213539509e-002	1.515334e+000	4.996513e+000	2.499723e-004
4.933030790425212e-002	1.515334e+000	4.996513e+000	2.499723e-004
4.933037367310916e-002	1.515334e+000	4.996513e+000	2.499723e-004
4.933043167399096e-002	1.515334e+000	4.996513e+000	2.499723e-004
4.933045648296189e-002	1.515334e+000	4.996513e+000	2.499723e-004
4.933048129193281e-002	1.515334e+000	4.996513e+000	2.499724e-004
4.933050610090374e-002	1.515334e+000	4.996513e+000	2.499724e-004
4.933053090987466e-002	1.515334e+000	4.996513e+000	2.499724e-004
4.933055571884559e-002	1.515334e+000	4.996513e+000	2.499724e-004
4.933058052781651e-002	1.515334e+000	4.996513e+000	2.499724e-004
4.933060533678744e-002	1.515334e+000	4.996513e+000	2.499724e-004
4.933060601648527e-002	1.515334e+000	4.996513e+000	2.499724e-004
4.933060692274905e-002	1.515334e+000	4.996513e+000	2.499724e-004
4.933060873527661e-002	1.515334e+000	4.996513e+000	2.499724e-004
4.933061961044195e-002	1.515334e+000	4.996513e+000	2.499724e-004
4.933063411066239e-002	1.515334e+000	4.996513e+000	2.499724e-004
4.933063864198128e-002	1.515334e+000	4.996513e+000	2.499724e-004
4.933065359533363e-002	1.515334e+000	4.996513e+000	2.499724e-004
4.933065812665251e-002	1.515334e+000	4.996513e+000	2.499724e-004
4.933066265797141e-002	1.515334e+000	4.996513e+000	2.499724e-004
4.933066718929030e-002	1.515334e+000	4.996513e+000	2.499724e-004
4.933067172060919e-002	1.515334e+000	4.996513e+000	2.499724e-004
4.933067625192808e-002	1.515334e+000	4.996513e+000	2.499724e-004
4.933068078324698e-002	1.515334e+000	4.996513e+000	2.499724e-004
4.933068531456587e-002	1.515334e+000	4.996513e+000	2.499724e-004
4.933088514572896e-002	1.515334e+000	4.996513e+000	2.499724e-004
4.933088786452029e-002	1.515334e+000	4.996513e+000	2.499724e-004
4.933092638073086e-002	1.515334e+000	4.996513e+000	2.499724e-004
4.933093130044852e-002	1.515334e+000	4.996513e+000	2.499724e-004
4.933093622016617e-002	1.515334e+000	4.996513e+000	2.499724e-004
4.933094113988382e-002	1.515334e+000	4.996513e+000	2.499724e-004
4.933094605960147e-002	1.515334e+000	4.996513e+000	2.499724e-004
4.933095097931912e-002	1.515334e+000	4.996513e+000	2.499724e-004
4.933095589903678e-002	1.515334e+000	4.996513e+000	2.499724e-004
4.933096081875443e-002	1.515334e+000	4.996513e+000	2.499724e-004
4.933156189820526e-002	1.515334e+000	4.996513e+000	2.499725e-004
4.933156325760092e-002	1.515334e+000	4.996513e+000	2.499725e-004
4.933156578219287e-002	1.515334e+000	4.996513e+000	2.499725e-004
4.933156830678483e-002	1.515334e+000	4.996513e+000	2.499725e-004
4.933157083137679e-002	1.515334e+000	4.996513e+000	2.499725e-004
4.933157335596874e-002	1.515334e+000	4.996513e+000	2.499725e-004
4.933157588056069e-002	1.515334e+000	4.996513e+000	2.499725e-004
4.933157840515265e-002	1.515334e+000	4.996513e+000	2.499725e-004
4.933158092974460e-002	1.515334e+000	4.996513e+000	2.499725e-004
4.933158455479971e-002	1.515334e+000	4.996513e+000	2.499725e-004
4.933159724249261e-002	1.515334e+000	4.996513e+000	2.499725e-004
4.933160449260284e-002	1.515334e+000	4.996513e+000	2.499725e-004
4.933160517230067e-002	1.515334e+000	4.996513e+000	2.499725e-004
4.933160789109201e-002	1.515334e+000	4.996513e+000	2.499725e-004
4.933161151614712e-002	1.515334e+000	4.996513e+000	2.499725e-004
4.933161423493845e-002	1.515334e+000	4.996513e+000	2.499725e-004
4.933166226691869e-002	1.515334e+000	4.996513e+000	2.499725e-004
4.933166317318247e-002	1.515334e+000	4.996513e+000	2.499725e-004
4.933166339974842e-002	1.515334e+000	4.996513e+000	2.499725e-004
4.933166345638990e-002	1.515334e+000	4.996513e+000	2.499725e-004
4.933166356967288e-002	1.515334e+000	4.996513e+000	2.499725e-004
4.933166379623882e-002	1.515334e+000	4.996513e+000	2.499725e-004
4.933166424937071e-002	1.515334e+000	4.996513e+000	2.499725e-004
4.933166426353108e-002	1.515334e+000	4.996513e+000	2.499725e-004
4.933166426707118e-002	1.515334e+000	4.996513e+000	2.499725e-004
4.933166427415136e-002	1.515334e+000	4.996513e+000	2.499725e-004
4.933166428831173e-002	1.515334e+000	4.996513e+000	2.499725e-004
4.933166431663247e-002	1.515334e+000	4.996513e+000	2.499725e-004
4.933166432371266e-002	1.515334e+000	4.996513e+000	2.499725e-004
4.933166433787303e-002	1.515334e+000	4.996513e+000	2.499725e-004
4.933166436619377e-002	1.515334e+000	4.996513e+000	2.499725e-004
4.933166442283526e-002	1.515334e+000	4.996513e+000	2.499725e-004
4.933166453611823e-002	1.515334e+000	4.996513e+000	2.499725e-004
4.933166476268418e-002	1.515334e+000	4.996513e+000	2.499725e-004
4.933166612207984e-002	1.515334e+000	4.996513e+000	2.499725e-004
4.933167155966251e-002	1.515334e+000	4.996513e+000	2.499725e-004
4.933167427845385e-002	1.515334e+000	4.996513e+000	2.499725e-004
4.933167880977274e-002	1.515334e+000	4.996513e+000	2.499725e-004
4.933168062230030e-002	1.515334e+000	4.996513e+000	2.499725e-004
4.933168198169596e-002	1.515334e+000	4.996513e+000	2.499725e-004
4.933168379422352e-002	1.515334e+000	4.996513e+000	2.499725e-004
4.933168741927863e-002	1.515334e+000	4.996513e+000	2.499725e-004
4.933168832554241e-002	1.515334e+000	4.996513e+000	2.499725e-004
4.933168855210836e-002	1.515334e+000	4.996513e+000	2.499725e-004
4.933168860874984e-002	1.515334e+000	4.996513e+000	2.499725e-004
4.933168862291022e-002	1.515334e+000	4.996513e+000	2.499725e-004
4.933168870787244e-002	1.515334e+000	4.996513e+000	2.499725e-004
4.933168872203281e-002	1.515334e+000	4.996513e+000	2.499725e-004
4.933168875035356e-002	1.515334e+000	4.996513e+000	2.499725e-004
4.933168880699504e-002	1.515334e+000	4.996513e+000	2.499725e-004
4.933168892027801e-002	1.515334e+000	4.996513e+000	2.499725e-004
4.933168914684396e-002	1.515334e+000	4.996513e+000	2.499725e-004
4.933169050623962e-002	1.515334e+000	4.996513e+000	2.499725e-004
4.933169685008607e-002	1.515334e+000	4.996513e+000	2.499725e-004
4.933170228766874e-002	1.515334e+000	4.996513e+000	2.499725e-004
4.933461411318773e-002	1.515334e+000	4.996513e+000	2.499727e-004
4.933462317582552e-002	1.515334e+000	4.996513e+000	2.499727e-004
4.933492178974040e-002	1.515334e+000	4.996513e+000	2.499727e-004
4.933492450853173e-002	1.515334e+000	4.996513e+000	2.499727e-004
4.933504057502846e-002	1.515334e+000	4.996513e+000	2.499727e-004
4.933515664152518e-002	1.515334e+000	4.996513e+000	2.499727e-004
4.933527270802190e-002	1.515334e+000	4.996513e+000	2.499727e-004
4.933538877451863e-002	1.515334e+000	4.996513e+000	2.499727e-004
4.933550484101536e-002	1.515334e+000	4.996513e+000	2.499728e-004
4.933562090751208e-002	1.515334e+000	4.996513e+000	2.499728e-004
4.933573697400880e-002	1.515334e+000	4.996513e+000	2.499728e-004
4.933573969280014e-002	1.515334e+000	4.996513e+000	2.499728e-004
4.933646742261395e-002	1.515334e+000	4.996513e+000	2.499728e-004
4.933646923514151e-002	1.515334e+000	4.996513e+000	2.499728e-004
4.933647059453718e-002	1.515334e+000	4.996513e+000	2.499728e-004
4.933647318386226e-002	1.515334e+000	4.996513e+000	2.499728e-004
4.933647577318734e-002	1.515334e+000	4.996513e+000	2.499728e-004
4.933647836251242e-002	1.515334e+000	4.996513e+000	2.499729e-004
4.933648095183750e-002	1.515334e+000	4.996513e+000	2.499729e-004
4.933648354116258e-002	1.515334e+000	4.996513e+000	2.499729e-004
4.933648613048766e-002	1.515334e+000	4.996513e+000	2.499729e-004
4.933648871981274e-002	1.515334e+000	4.996513e+000	2.499729e-004
4.933656575223389e-002	1.515334e+000	4.996513e+000	2.499729e-004
4.933656756476144e-002	1.515334e+000	4.996513e+000	2.499729e-004
4.933656892415711e-002	1.515334e+000	4.996513e+000	2.499729e-004
4.933657436173978e-002	1.515334e+000	4.996513e+000	2.499729e-004
4.933660698723579e-002	1.515334e+000	4.996513e+000	2.499729e-004
4.933663961273180e-002	1.515334e+000	4.996513e+000	2.499729e-004
4.933667223822781e-002	1.515334e+000	4.996513e+000	2.499729e-004
